
T4558 000:047 SEGGER J-Link V6.10i Log File (0000ms, 0019ms total)
T4558 000:047 DLL Compiled: Oct 25 2016 19:31:51 (0000ms, 0019ms total)
T4558 000:047 Logging started @ 2018-08-22 19:49 (0000ms, 0019ms total)
T4558 000:047 JLINK_SetWarnOutHandler(...) (0000ms, 0019ms total)
T4558 000:047 JLINK_OpenEx(...)
Firmware: J-Link ARM-OB STM32 compiled Aug 22 2012 19:52:04
Hardware: V7.00
S/N: 20090928
Feature(s): RDI,FlashDL,FlashBP,JFlash,GDBWEBSRV Webserver running on local port 19080 (0009ms, 0028ms total)
T4558 000:047   returns O.K. (0009ms, 0028ms total)
T4558 000:056 JLINK_SetErrorOutHandler(...) (0000ms, 0028ms total)
T4558 000:056 JLINK_ExecCommand("ProjectFile = "E:\SINOAGG\SMU\Code\SMU_V2.03\MDK-ARM\JLinkSettings.ini"", ...).   returns 0x00 (0147ms, 0175ms total)
T4558 000:203 JLINK_ExecCommand("Device = STM32F103RE", ...). Device "STM32F103RE" selected.  returns 0x00 (0001ms, 0176ms total)
T4558 000:204 JLINK_ExecCommand("DisableConnectionTimeout", ...).   returns 0x01 (0000ms, 0176ms total)
T4558 000:204 JLINK_GetHardwareVersion()  returns 0x11170 (0000ms, 0176ms total)
T4558 000:204 JLINK_GetDLLVersion()  returns 61009 (0000ms, 0176ms total)
T4558 000:204 JLINK_GetFirmwareString(...) (0000ms, 0176ms total)
T4558 000:204 JLINK_GetDLLVersion()  returns 61009 (0000ms, 0176ms total)
T4558 000:204 JLINK_GetCompileDateTime() (0000ms, 0176ms total)
T4558 000:204 JLINK_GetFirmwareString(...) (0000ms, 0176ms total)
T4558 000:204 JLINK_GetHardwareVersion()  returns 0x11170 (0000ms, 0176ms total)
T4558 000:204 JLINK_TIF_Select(JLINKARM_TIF_SWD)  returns 0x00 (0001ms, 0177ms total)
T4558 000:205 JLINK_SetSpeed(5000) (0000ms, 0177ms total)
T4558 000:205 JLINK_GetId() >0x108 TIF>Found SWD-DP with ID 0x1BA01477 >0x0D TIF> >0x28 TIF> >0x0D TIF> >0x28 TIF> >0x0D TIF> >0x28 TIF> >0x0D TIF> >0x28 TIF> >0x0D TIF> >0x21 TIF> >0x0D TIF> >0x28 TIF> >0x0D TIF> >0x28 TIF> >0x0D TIF> >0x28 TIF> >0x0D TIF> >0x21 TIF> >0x0D TIF> >0x21 TIF> >0x0D TIF> >0x28 TIF> >0x0D TIF> >0x21 TIF> >0x0D TIF> >0x21 TIF> >0x0D TIF> >0x28 TIF> >0x0D TIF> >0x21 TIF> >0x0D TIF> >0x21 TIF> >0x0D TIF> >0x28 TIF> >0x0D TIF> >0x21 TIF> >0x0D TIF> >0x21 TIF> >0x0D TIF>
 >0x28 TIF> >0x0D TIF> >0x21 TIF> >0x0D TIF> >0x21 TIF> >0x0D TIF> >0x28 TIF> >0x0D TIF> >0x21 TIF> >0x0D TIF> >0x21 TIF> >0x0D TIF> >0x28 TIF> >0x0D TIF> >0x21 TIF> >0x0D TIF> >0x21 TIF> >0x108 TIF>Found SWD-DP with ID 0x1BA01477 >0x0D TIF> >0x28 TIF> >0x0D TIF> >0x28 TIF> >0x0D TIF> >0x28 TIF> >0x0D TIF> >0x28 TIF> >0x0D TIF> >0x21 TIF> >0x0D TIF> >0x28 TIF> >0x0D TIF> >0x28 TIF> >0x0D TIF> >0x21 TIF> >0x0D TIF> >0x21 TIF> >0x0D TIF> >0x21 TIF>AP-IDR: 0x14770011, Type: AHB-AP >0x0D TIF> >0x28 TIF>
 >0x0D TIF> >0x28 TIF> >0x0D TIF> >0x28 TIF> >0x0D TIF> >0x21 TIF> >0x0D TIF> >0x21 TIF> >0x0D TIF> >0x28 TIF> >0x0D TIF> >0x21 TIF> >0x0D TIF> >0x21 TIF>Found Cortex-M3 r1p1, Little endian. -- CPU_ReadMem(4 bytes @ 0xE000EDF0) -- CPU_WriteMem(4 bytes @ 0xE000EDF0) -- CPU_ReadMem(4 bytes @ 0xE0002000)FPUnit: 6 code (BP) slots and 2 literal slots -- CPU_ReadMem(4 bytes @ 0xE000EDFC) -- CPU_WriteMem(4 bytes @ 0xE000EDFC) -- CPU_ReadMem(4 bytes @ 0xE0001000) -- CPU_WriteMem(4 bytes @ 0xE0001000)
 -- CPU_ReadMem(4 bytes @ 0xE000ED88) -- CPU_WriteMem(4 bytes @ 0xE000ED88) -- CPU_ReadMem(4 bytes @ 0xE000ED88) -- CPU_WriteMem(4 bytes @ 0xE000ED88)CoreSight components:ROMTbl 0 @ E00FF000 -- CPU_ReadMem(16 bytes @ 0xE00FF000) -- CPU_ReadMem(16 bytes @ 0xE000EFF0) -- CPU_ReadMem(16 bytes @ 0xE000EFE0)ROMTbl 0 [0]: FFF0F000, CID: B105E00D, PID: 001BB000 SCS -- CPU_ReadMem(16 bytes @ 0xE0001FF0) -- CPU_ReadMem(16 bytes @ 0xE0001FE0)ROMTbl 0 [1]: FFF02000, CID: B105E00D, PID: 001BB002 DWT
 -- CPU_ReadMem(16 bytes @ 0xE0002FF0) -- CPU_ReadMem(16 bytes @ 0xE0002FE0)ROMTbl 0 [2]: FFF03000, CID: B105E00D, PID: 000BB003 FPB -- CPU_ReadMem(16 bytes @ 0xE0000FF0) -- CPU_ReadMem(16 bytes @ 0xE0000FE0)ROMTbl 0 [3]: FFF01000, CID: B105E00D, PID: 001BB001 ITM -- CPU_ReadMem(16 bytes @ 0xE00FF010) -- CPU_ReadMem(16 bytes @ 0xE0040FF0) -- CPU_ReadMem(16 bytes @ 0xE0040FE0)ROMTbl 0 [4]: FFF41000, CID: B105900D, PID: 001BB923 TPIU-Lite -- CPU_ReadMem(16 bytes @ 0xE0041FF0)
 -- CPU_ReadMem(16 bytes @ 0xE0041FE0)ROMTbl 0 [5]: FFF42000, CID: B105900D, PID: 101BB924 ETM-M3 >0x0D TIF> >0x21 TIF>  returns 0x1BA01477 (0031ms, 0208ms total)
T4558 000:237 JLINK_GetDLLVersion()  returns 61009 (0000ms, 0208ms total)
T4558 000:237 JLINK_CORE_GetFound()  returns 0x30000FF (0000ms, 0208ms total)
T4558 000:237 JLINK_GetDebugInfo(0x100) -- Value=0xE00FF000  returns 0x00 (0000ms, 0208ms total)
T4558 000:237 JLINK_GetDebugInfo(0x100) -- Value=0xE00FF000  returns 0x00 (0000ms, 0208ms total)
T4558 000:237 JLINK_GetDebugInfo(0x101) -- Value=0xE0041000  returns 0x00 (0000ms, 0208ms total)
T4558 000:237 JLINK_GetDebugInfo(0x102) -- Value=0x00000000  returns 0x00 (0000ms, 0208ms total)
T4558 000:237 JLINK_GetDebugInfo(0x103) -- Value=0xE0040000  returns 0x00 (0000ms, 0208ms total)
T4558 000:237 JLINK_GetDebugInfo(0x104) -- Value=0xE0000000  returns 0x00 (0000ms, 0208ms total)
T4558 000:237 JLINK_GetDebugInfo(0x105) -- Value=0xE0001000  returns 0x00 (0000ms, 0208ms total)
T4558 000:237 JLINK_GetDebugInfo(0x106) -- Value=0xE0002000  returns 0x00 (0000ms, 0208ms total)
T4558 000:237 JLINK_GetDebugInfo(0x107) -- Value=0xE000E000  returns 0x00 (0000ms, 0208ms total)
T4558 000:237 JLINK_GetDebugInfo(0x10C) -- Value=0xE000EDF0  returns 0x00 (0000ms, 0208ms total)
T4558 000:237 JLINK_ReadMemU32(0xE000ED00, 0x0001 Items, ...) -- CPU is running -- CPU_ReadMem(4 bytes @ 0xE000ED00) - Data: 31 C2 1F 41  returns 0x01 (0000ms, 0208ms total)
T4558 000:237 JLINK_SetResetType(JLINKARM_RESET_TYPE_NORMAL)  returns JLINKARM_RESET_TYPE_NORMAL (0000ms, 0208ms total)
T4558 000:237 JLINK_Reset() -- CPU is running -- CPU_WriteMem(4 bytes @ 0xE000EDF0) -- CPU is running -- CPU_WriteMem(4 bytes @ 0xE000EDFC) >0x35 TIF> -- CPU is running -- CPU_WriteMem(4 bytes @ 0xE000ED0C) -- CPU is running -- CPU_ReadMem(4 bytes @ 0xE000EDF0) -- CPU is running -- CPU_ReadMem(4 bytes @ 0xE000EDF0) -- CPU is running -- CPU_WriteMem(4 bytes @ 0xE000EDF0) -- CPU is running -- CPU_WriteMem(4 bytes @ 0xE000EDFC) -- CPU is running -- CPU_ReadMem(4 bytes @ 0xE000EDF0)
 -- CPU_WriteMem(4 bytes @ 0xE0002000) -- CPU_ReadMem(4 bytes @ 0xE000EDFC) -- CPU_ReadMem(4 bytes @ 0xE0001000) (0021ms, 0229ms total)
T4558 000:258 JLINK_ReadReg(R15 (PC))  returns 0x08000144 (0000ms, 0229ms total)
T4558 000:258 JLINK_ReadReg(XPSR)  returns 0x01000000 (0000ms, 0229ms total)
T4558 000:258 JLINK_Halt()  returns 0x00 (0000ms, 0229ms total)
T4558 000:258 JLINK_IsHalted()  returns TRUE (0000ms, 0229ms total)
T4558 000:258 JLINK_ReadMemU32(0xE000EDF0, 0x0001 Items, ...) -- CPU_ReadMem(4 bytes @ 0xE000EDF0) - Data: 03 00 03 00  returns 0x01 (0000ms, 0229ms total)
T4558 000:258 JLINK_WriteU32(0xE000EDF0, 0xA05F0003) -- CPU_WriteMem(4 bytes @ 0xE000EDF0)  returns 0x00 (0001ms, 0230ms total)
T4558 000:259 JLINK_WriteU32(0xE000EDFC, 0x01000000) -- CPU_WriteMem(4 bytes @ 0xE000EDFC)  returns 0x00 (0001ms, 0231ms total)
T4558 000:260 JLINK_GetHWStatus(...)  returns 0x00 (0000ms, 0231ms total)
T4558 000:260 JLINK_GetNumBPUnits(Type = 0xFFFFFF00)  returns 0x06 (0000ms, 0231ms total)
T4558 000:260 JLINK_GetNumBPUnits(Type = 0xF0)  returns 0x2000 (0000ms, 0231ms total)
T4558 000:260 JLINK_GetNumWPUnits()  returns 0x04 (0000ms, 0231ms total)
T4558 000:260 JLINK_GetSpeed()  returns 0xFA0 (0000ms, 0231ms total)
T4558 000:260 JLINK_ReadMemU32(0xE000E004, 0x0001 Items, ...) -- CPU_ReadMem(4 bytes @ 0xE000E004) - Data: 01 00 00 00  returns 0x01 (0001ms, 0232ms total)
T4558 000:261 JLINK_ReadMemU32(0xE000E004, 0x0001 Items, ...) -- CPU_ReadMem(4 bytes @ 0xE000E004) - Data: 01 00 00 00  returns 0x01 (0000ms, 0232ms total)
T4558 000:261 JLINK_WriteMem(0xE0001000, 0x001C Bytes, ...) - Data: 01 00 00 00 00 00 00 00 00 00 00 00 00 00 00 00 ... -- CPU_WriteMem(28 bytes @ 0xE0001000)  returns 0x1C (0002ms, 0234ms total)
T4558 000:263 JLINK_ReadMem (0xE0001000, 0x001C Bytes, ...) -- CPU_ReadMem(28 bytes @ 0xE0001000) - Data: 01 00 00 40 00 00 00 00 00 00 00 00 00 00 00 00 ...  returns 0x00 (0001ms, 0235ms total)
T4558 000:264 JLINK_ReadReg(R15 (PC))  returns 0x08000144 (0000ms, 0235ms total)
T4558 000:264 JLINK_ReadReg(XPSR)  returns 0x01000000 (0000ms, 0235ms total)
T4558 000:371 JLINK_SetResetType(JLINKARM_RESET_TYPE_NORMAL)  returns JLINKARM_RESET_TYPE_NORMAL (0000ms, 0235ms total)
T4558 000:371 JLINK_Reset() -- CPU_WriteMem(4 bytes @ 0xE000EDF0) -- CPU_WriteMem(4 bytes @ 0xE000EDFC) >0x35 TIF> -- CPU_WriteMem(4 bytes @ 0xE000ED0C) -- CPU_ReadMem(4 bytes @ 0xE000EDF0) -- CPU_ReadMem(4 bytes @ 0xE000EDF0) -- CPU_WriteMem(4 bytes @ 0xE000EDF0) -- CPU_WriteMem(4 bytes @ 0xE000EDFC) -- CPU is running -- CPU_ReadMem(4 bytes @ 0xE000EDF0) -- CPU_WriteMem(4 bytes @ 0xE0002000) -- CPU_ReadMem(4 bytes @ 0xE000EDFC) -- CPU_ReadMem(4 bytes @ 0xE0001000) (0020ms, 0255ms total)
T4558 000:391 JLINK_ReadReg(R15 (PC))  returns 0x08000144 (0000ms, 0255ms total)
T4558 000:391 JLINK_ReadReg(XPSR)  returns 0x01000000 (0000ms, 0255ms total)
T4558 000:617 JLINK_ReadMem (0x08000144, 0x003C Bytes, ...) -- CPU_ReadMem(64 bytes @ 0x08000140) -- Updating C cache (64 bytes @ 0x08000140) -- Read from C cache (60 bytes @ 0x08000144) - Data: 06 48 80 47 06 48 00 47 FE E7 FE E7 FE E7 FE E7 ...  returns 0x00 (0001ms, 0256ms total)
T4558 000:802 JLINK_ReadMem (0x40020000, 0x0004 Bytes, ...) -- CPU_ReadMem(4 bytes @ 0x40020000) - Data: 00 00 00 00  returns 0x00 (0001ms, 0257ms total)
T4558 000:803 JLINK_ReadMem (0x40020008, 0x000C Bytes, ...) -- CPU_ReadMem(12 bytes @ 0x40020008) - Data: 00 00 00 00 00 00 00 00 00 00 00 00  returns 0x00 (0000ms, 0257ms total)
T4558 000:803 JLINK_ReadMem (0x40020014, 0x0004 Bytes, ...) -- CPU_ReadMem(4 bytes @ 0x40020014) - Data: 00 00 00 00  returns 0x00 (0001ms, 0258ms total)
T4558 000:804 JLINK_ReadMem (0x4002001C, 0x000C Bytes, ...) -- CPU_ReadMem(12 bytes @ 0x4002001C) - Data: 00 00 00 00 00 00 00 00 00 00 00 00  returns 0x00 (0000ms, 0258ms total)
T4558 000:804 JLINK_ReadMem (0x40020028, 0x0004 Bytes, ...) -- CPU_ReadMem(4 bytes @ 0x40020028) - Data: 00 00 00 00  returns 0x00 (0001ms, 0259ms total)
T4558 000:805 JLINK_ReadMem (0x40020030, 0x000C Bytes, ...) -- CPU_ReadMem(12 bytes @ 0x40020030) - Data: 00 00 00 00 00 00 00 00 00 00 00 00  returns 0x00 (0001ms, 0260ms total)
T4558 000:806 JLINK_ReadMem (0x4002003C, 0x0004 Bytes, ...) -- CPU_ReadMem(4 bytes @ 0x4002003C) - Data: 00 00 00 00  returns 0x00 (0000ms, 0260ms total)
T4558 000:806 JLINK_ReadMem (0x40020044, 0x000C Bytes, ...) -- CPU_ReadMem(12 bytes @ 0x40020044) - Data: 00 00 00 00 00 00 00 00 00 00 00 00  returns 0x00 (0001ms, 0261ms total)
T4558 000:807 JLINK_ReadMem (0x40020050, 0x0004 Bytes, ...) -- CPU_ReadMem(4 bytes @ 0x40020050) - Data: 00 00 00 00  returns 0x00 (0000ms, 0261ms total)
T4558 000:807 JLINK_ReadMem (0x40020058, 0x000C Bytes, ...) -- CPU_ReadMem(12 bytes @ 0x40020058) - Data: 00 00 00 00 00 00 00 00 00 00 00 00  returns 0x00 (0001ms, 0262ms total)
T4558 000:808 JLINK_ReadMem (0x40020064, 0x0004 Bytes, ...) -- CPU_ReadMem(4 bytes @ 0x40020064) - Data: 00 00 00 00  returns 0x00 (0000ms, 0262ms total)
T4558 000:808 JLINK_ReadMem (0x4002006C, 0x000C Bytes, ...) -- CPU_ReadMem(12 bytes @ 0x4002006C) - Data: 00 00 00 00 00 00 00 00 00 00 00 00  returns 0x00 (0001ms, 0263ms total)
T4558 000:809 JLINK_ReadMem (0x40020078, 0x0004 Bytes, ...) -- CPU_ReadMem(4 bytes @ 0x40020078) - Data: 00 00 00 00  returns 0x00 (0000ms, 0263ms total)
T4558 000:809 JLINK_ReadMem (0x40020080, 0x000C Bytes, ...) -- CPU_ReadMem(12 bytes @ 0x40020080) - Data: 00 00 00 00 00 00 00 00 00 00 00 00  returns 0x00 (0001ms, 0264ms total)
T4558 000:810 JLINK_ReadMem (0x4002008C, 0x0004 Bytes, ...) -- CPU_ReadMem(4 bytes @ 0x4002008C) - Data: 00 00 00 00  returns 0x00 (0000ms, 0264ms total)
T4558 002:545 JLINK_ReadMem (0x20000084, 0x0020 Bytes, ...) -- CPU_ReadMem(64 bytes @ 0x20000080) -- Updating C cache (64 bytes @ 0x20000080) -- Read from C cache (32 bytes @ 0x20000084) - Data: 01 13 03 00 03 E8 03 E8 03 E8 03 E8 03 E8 03 E8 ...  returns 0x00 (0001ms, 0265ms total)
T4558 002:568 JLINK_ReadMem (0x20000284, 0x0020 Bytes, ...) -- CPU_ReadMem(64 bytes @ 0x20000280) -- Updating C cache (64 bytes @ 0x20000280) -- Read from C cache (32 bytes @ 0x20000284) - Data: 00 00 00 00 00 00 00 00 00 00 00 00 00 00 00 00 ...  returns 0x00 (0002ms, 0267ms total)
T628C 002:608 JLINK_SetBPEx(Addr = 0x08005E64, Type = 0xFFFFFFF2)  returns 0x00000001 (0000ms, 0267ms total)
T628C 002:608 JLINK_SetBPEx(Addr = 0x08004926, Type = 0xFFFFFFF2)  returns 0x00000002 (0000ms, 0267ms total)
T628C 002:608 JLINK_Go() -- CPU_WriteMem(4 bytes @ 0xE0002000) -- CPU_WriteMem(4 bytes @ 0xE0002000) -- CPU_ReadMem(4 bytes @ 0xE0001000) -- CPU_WriteMem(4 bytes @ 0xE0002008) -- CPU_WriteMem(4 bytes @ 0xE000200C) -- CPU_WriteMem(4 bytes @ 0xE0002010) -- CPU_WriteMem(4 bytes @ 0xE0002014) -- CPU_WriteMem(4 bytes @ 0xE0002018) -- CPU_WriteMem(4 bytes @ 0xE000201C) -- CPU_WriteMem(4 bytes @ 0xE0001004) (0006ms, 0273ms total)
T628C 002:715 JLINK_IsHalted()  returns TRUE (0003ms, 0276ms total)
T628C 002:718 JLINK_Halt()  returns 0x00 (0000ms, 0273ms total)
T628C 002:718 JLINK_IsHalted()  returns TRUE (0000ms, 0273ms total)
T628C 002:718 JLINK_IsHalted()  returns TRUE (0000ms, 0273ms total)
T628C 002:718 JLINK_IsHalted()  returns TRUE (0000ms, 0273ms total)
T628C 002:718 JLINK_ReadReg(R15 (PC))  returns 0x08005E64 (0000ms, 0273ms total)
T628C 002:718 JLINK_ReadReg(XPSR)  returns 0x61000000 (0000ms, 0273ms total)
T628C 002:718 JLINK_ClrBPEx(BPHandle = 0x00000001)  returns 0x00 (0000ms, 0273ms total)
T628C 002:718 JLINK_ClrBPEx(BPHandle = 0x00000002)  returns 0x00 (0000ms, 0273ms total)
T628C 002:718 JLINK_ReadMemU32(0xE000ED30, 0x0001 Items, ...) -- CPU_ReadMem(4 bytes @ 0xE000ED30) - Data: 03 00 00 00  returns 0x01 (0001ms, 0274ms total)
T628C 002:719 JLINK_ReadMemU32(0xE0001028, 0x0001 Items, ...) -- CPU_ReadMem(4 bytes @ 0xE0001028) - Data: 00 00 00 00  returns 0x01 (0001ms, 0275ms total)
T628C 002:720 JLINK_ReadMemU32(0xE0001038, 0x0001 Items, ...) -- CPU_ReadMem(4 bytes @ 0xE0001038) - Data: 00 02 00 00  returns 0x01 (0000ms, 0275ms total)
T628C 002:720 JLINK_ReadMemU32(0xE0001048, 0x0001 Items, ...) -- CPU_ReadMem(4 bytes @ 0xE0001048) - Data: 00 00 00 00  returns 0x01 (0001ms, 0276ms total)
T628C 002:721 JLINK_ReadMemU32(0xE0001058, 0x0001 Items, ...) -- CPU_ReadMem(4 bytes @ 0xE0001058) - Data: 00 00 00 00  returns 0x01 (0000ms, 0276ms total)
T628C 002:721 JLINK_ReadReg(R0)  returns 0x08005E65 (0000ms, 0276ms total)
T628C 002:721 JLINK_ReadReg(R1)  returns 0x20000FC8 (0000ms, 0276ms total)
T628C 002:721 JLINK_ReadReg(R2)  returns 0x00000000 (0000ms, 0276ms total)
T628C 002:721 JLINK_ReadReg(R3)  returns 0x08005DE1 (0000ms, 0276ms total)
T628C 002:721 JLINK_ReadReg(R4)  returns 0x08006180 (0000ms, 0276ms total)
T628C 002:721 JLINK_ReadReg(R5)  returns 0x08006180 (0000ms, 0276ms total)
T628C 002:721 JLINK_ReadReg(R6)  returns 0x00000000 (0000ms, 0276ms total)
T628C 002:721 JLINK_ReadReg(R7)  returns 0x00000000 (0000ms, 0276ms total)
T628C 002:721 JLINK_ReadReg(R8)  returns 0x00000000 (0000ms, 0276ms total)
T628C 002:721 JLINK_ReadReg(R9)  returns 0x20000160 (0000ms, 0276ms total)
T628C 002:721 JLINK_ReadReg(R10)  returns 0x00000000 (0000ms, 0276ms total)
T628C 002:721 JLINK_ReadReg(R11)  returns 0x00000000 (0000ms, 0276ms total)
T628C 002:721 JLINK_ReadReg(R12)  returns 0x00000000 (0000ms, 0276ms total)
T628C 002:721 JLINK_ReadReg(R13 (SP))  returns 0x20000FC8 (0001ms, 0277ms total)
T628C 002:722 JLINK_ReadReg(R14)  returns 0x0800089D (0000ms, 0277ms total)
T628C 002:722 JLINK_ReadReg(R15 (PC))  returns 0x08005E64 (0000ms, 0277ms total)
T628C 002:722 JLINK_ReadReg(XPSR)  returns 0x61000000 (0000ms, 0277ms total)
T628C 002:722 JLINK_ReadReg(MSP)  returns 0x20000FC8 (0000ms, 0277ms total)
T628C 002:722 JLINK_ReadReg(PSP)  returns 0x20001000 (0000ms, 0277ms total)
T628C 002:722 JLINK_ReadReg(CFBP)  returns 0x00000000 (0000ms, 0277ms total)
T4558 002:723 JLINK_ReadMem (0x00000000, 0x0001 Bytes, ...) -- CPU_ReadMem(4 bytes @ 0x00000004) -- CPU_ReadMem(64 bytes @ 0x08000000) -- Updating C cache (64 bytes @ 0x08000000) -- Read from C cache (1 bytes @ 0x08000000) - Data: C8  returns 0x00 (0002ms, 0279ms total)
T4558 002:726 JLINK_ReadMem (0x20000084, 0x0020 Bytes, ...) -- CPU_ReadMem(64 bytes @ 0x20000080) -- Updating C cache (64 bytes @ 0x20000080) -- Read from C cache (32 bytes @ 0x20000084) - Data: 00 00 00 00 00 00 00 00 00 00 00 00 00 00 00 00 ...  returns 0x00 (0001ms, 0280ms total)
T4558 002:729 JLINK_ReadMem (0x20000284, 0x0020 Bytes, ...) -- CPU_ReadMem(64 bytes @ 0x20000280) -- Updating C cache (64 bytes @ 0x20000280) -- Read from C cache (32 bytes @ 0x20000284) - Data: 00 00 00 00 00 00 00 00 00 00 00 00 00 00 00 00 ...  returns 0x00 (0001ms, 0281ms total)
T4558 002:730 JLINK_ReadMem (0x40020000, 0x0004 Bytes, ...) -- CPU_ReadMem(4 bytes @ 0x40020000) - Data: 00 00 00 00  returns 0x00 (0000ms, 0281ms total)
T4558 002:730 JLINK_ReadMem (0x40020008, 0x000C Bytes, ...) -- CPU_ReadMem(12 bytes @ 0x40020008) - Data: 00 00 00 00 00 00 00 00 00 00 00 00  returns 0x00 (0001ms, 0282ms total)
T4558 002:731 JLINK_ReadMem (0x40020014, 0x0004 Bytes, ...) -- CPU_ReadMem(4 bytes @ 0x40020014) - Data: 00 00 00 00  returns 0x00 (0000ms, 0282ms total)
T4558 002:731 JLINK_ReadMem (0x4002001C, 0x000C Bytes, ...) -- CPU_ReadMem(12 bytes @ 0x4002001C) - Data: 00 00 00 00 00 00 00 00 00 00 00 00  returns 0x00 (0001ms, 0283ms total)
T4558 002:732 JLINK_ReadMem (0x40020028, 0x0004 Bytes, ...) -- CPU_ReadMem(4 bytes @ 0x40020028) - Data: 00 00 00 00  returns 0x00 (0000ms, 0283ms total)
T4558 002:732 JLINK_ReadMem (0x40020030, 0x000C Bytes, ...) -- CPU_ReadMem(12 bytes @ 0x40020030) - Data: 00 00 00 00 00 00 00 00 00 00 00 00  returns 0x00 (0001ms, 0284ms total)
T4558 002:733 JLINK_ReadMem (0x4002003C, 0x0004 Bytes, ...) -- CPU_ReadMem(4 bytes @ 0x4002003C) - Data: 00 00 00 00  returns 0x00 (0000ms, 0284ms total)
T4558 002:733 JLINK_ReadMem (0x40020044, 0x000C Bytes, ...) -- CPU_ReadMem(12 bytes @ 0x40020044) - Data: 00 00 00 00 00 00 00 00 00 00 00 00  returns 0x00 (0001ms, 0285ms total)
T4558 002:734 JLINK_ReadMem (0x40020050, 0x0004 Bytes, ...) -- CPU_ReadMem(4 bytes @ 0x40020050) - Data: 00 00 00 00  returns 0x00 (0001ms, 0286ms total)
T4558 002:735 JLINK_ReadMem (0x40020058, 0x000C Bytes, ...) -- CPU_ReadMem(12 bytes @ 0x40020058) - Data: 00 00 00 00 00 00 00 00 00 00 00 00  returns 0x00 (0000ms, 0286ms total)
T4558 002:735 JLINK_ReadMem (0x40020064, 0x0004 Bytes, ...) -- CPU_ReadMem(4 bytes @ 0x40020064) - Data: 00 00 00 00  returns 0x00 (0001ms, 0287ms total)
T4558 002:736 JLINK_ReadMem (0x4002006C, 0x000C Bytes, ...) -- CPU_ReadMem(12 bytes @ 0x4002006C) - Data: 00 00 00 00 00 00 00 00 00 00 00 00  returns 0x00 (0000ms, 0287ms total)
T4558 002:736 JLINK_ReadMem (0x40020078, 0x0004 Bytes, ...) -- CPU_ReadMem(4 bytes @ 0x40020078) - Data: 00 00 00 00  returns 0x00 (0001ms, 0288ms total)
T4558 002:737 JLINK_ReadMem (0x40020080, 0x000C Bytes, ...) -- CPU_ReadMem(12 bytes @ 0x40020080) - Data: 00 00 00 00 00 00 00 00 00 00 00 00  returns 0x00 (0000ms, 0288ms total)
T4558 002:737 JLINK_ReadMem (0x4002008C, 0x0004 Bytes, ...) -- CPU_ReadMem(4 bytes @ 0x4002008C) - Data: 00 00 00 00  returns 0x00 (0001ms, 0289ms total)
T4558 002:739 JLINK_ReadMem (0x08005E64, 0x003C Bytes, ...) -- CPU_ReadMem(128 bytes @ 0x08005E40) -- Updating C cache (128 bytes @ 0x08005E40) -- Read from C cache (60 bytes @ 0x08005E64) - Data: 00 24 FD F7 8D F9 8E 48 FD F7 F0 F9 8D 4A 00 21 ...  returns 0x00 (0001ms, 0290ms total)
T628C 004:202 JLINK_SetBPEx(Addr = 0x08004926, Type = 0xFFFFFFF2)  returns 0x00000003 (0000ms, 0290ms total)
T628C 004:202 JLINK_Go() -- CPU_WriteMem(4 bytes @ 0xE0002000) -- CPU_ReadMem(4 bytes @ 0xE0001000) -- CPU_WriteMem(4 bytes @ 0xE0002008) -- CPU_WriteMem(4 bytes @ 0xE000200C) (0003ms, 0293ms total)
T628C 004:306 JLINK_IsHalted()  returns TRUE (0003ms, 0296ms total)
T628C 004:309 JLINK_Halt()  returns 0x00 (0000ms, 0293ms total)
T628C 004:309 JLINK_IsHalted()  returns TRUE (0000ms, 0293ms total)
T628C 004:309 JLINK_IsHalted()  returns TRUE (0000ms, 0293ms total)
T628C 004:309 JLINK_IsHalted()  returns TRUE (0000ms, 0293ms total)
T628C 004:309 JLINK_ReadReg(R15 (PC))  returns 0x08004926 (0000ms, 0293ms total)
T628C 004:309 JLINK_ReadReg(XPSR)  returns 0x41000036 (0000ms, 0293ms total)
T628C 004:309 JLINK_ClrBPEx(BPHandle = 0x00000003)  returns 0x00 (0000ms, 0293ms total)
T628C 004:309 JLINK_ReadMemU32(0xE000ED30, 0x0001 Items, ...) -- CPU_ReadMem(4 bytes @ 0xE000ED30) - Data: 03 00 00 00  returns 0x01 (0001ms, 0294ms total)
T628C 004:310 JLINK_ReadMemU32(0xE0001028, 0x0001 Items, ...) -- CPU_ReadMem(4 bytes @ 0xE0001028) - Data: 00 00 00 00  returns 0x01 (0001ms, 0295ms total)
T628C 004:311 JLINK_ReadMemU32(0xE0001038, 0x0001 Items, ...) -- CPU_ReadMem(4 bytes @ 0xE0001038) - Data: 00 02 00 00  returns 0x01 (0000ms, 0295ms total)
T628C 004:311 JLINK_ReadMemU32(0xE0001048, 0x0001 Items, ...) -- CPU_ReadMem(4 bytes @ 0xE0001048) - Data: 00 00 00 00  returns 0x01 (0001ms, 0296ms total)
T628C 004:312 JLINK_ReadMemU32(0xE0001058, 0x0001 Items, ...) -- CPU_ReadMem(4 bytes @ 0xE0001058) - Data: 00 00 00 00  returns 0x01 (0001ms, 0297ms total)
T628C 004:313 JLINK_ReadReg(R0)  returns 0x0000204C (0000ms, 0297ms total)
T628C 004:313 JLINK_ReadReg(R1)  returns 0x40004400 (0000ms, 0297ms total)
T628C 004:313 JLINK_ReadReg(R2)  returns 0x00000000 (0000ms, 0297ms total)
T628C 004:313 JLINK_ReadReg(R3)  returns 0x01000000 (0000ms, 0297ms total)
T628C 004:313 JLINK_ReadReg(R4)  returns 0x00000040 (0000ms, 0297ms total)
T628C 004:313 JLINK_ReadReg(R5)  returns 0x00000001 (0000ms, 0297ms total)
T628C 004:313 JLINK_ReadReg(R6)  returns 0x00000000 (0000ms, 0297ms total)
T628C 004:313 JLINK_ReadReg(R7)  returns 0x00000000 (0000ms, 0297ms total)
T628C 004:313 JLINK_ReadReg(R8)  returns 0x00000000 (0000ms, 0297ms total)
T628C 004:313 JLINK_ReadReg(R9)  returns 0x20000160 (0000ms, 0297ms total)
T628C 004:313 JLINK_ReadReg(R10)  returns 0x00000000 (0000ms, 0297ms total)
T628C 004:313 JLINK_ReadReg(R11)  returns 0x00000000 (0000ms, 0297ms total)
T628C 004:313 JLINK_ReadReg(R12)  returns 0x00000004 (0000ms, 0297ms total)
T628C 004:313 JLINK_ReadReg(R13 (SP))  returns 0x20000F90 (0000ms, 0297ms total)
T628C 004:313 JLINK_ReadReg(R14)  returns 0xFFFFFFF9 (0000ms, 0297ms total)
T628C 004:313 JLINK_ReadReg(R15 (PC))  returns 0x08004926 (0000ms, 0297ms total)
T628C 004:313 JLINK_ReadReg(XPSR)  returns 0x41000036 (0000ms, 0297ms total)
T628C 004:313 JLINK_ReadReg(MSP)  returns 0x20000F90 (0000ms, 0297ms total)
T628C 004:313 JLINK_ReadReg(PSP)  returns 0x20001000 (0000ms, 0297ms total)
T628C 004:313 JLINK_ReadReg(CFBP)  returns 0x00000000 (0000ms, 0297ms total)
T4558 004:313 JLINK_ReadMem (0x20000F9C, 0x0004 Bytes, ...) -- CPU_ReadMem(64 bytes @ 0x20000F80) -- Updating C cache (64 bytes @ 0x20000F80) -- Read from C cache (4 bytes @ 0x20000F9C) - Data: F9 FF FF FF  returns 0x00 (0001ms, 0298ms total)
T4558 004:314 JLINK_ReadMem (0x20000FB8, 0x0004 Bytes, ...) -- Read from C cache (4 bytes @ 0x20000FB8) - Data: C2 31 00 08  returns 0x00 (0000ms, 0298ms total)
T4558 004:314 JLINK_ReadMem (0x20000FBC, 0x0004 Bytes, ...) -- Read from C cache (4 bytes @ 0x20000FBC) - Data: 00 00 00 01  returns 0x00 (0001ms, 0299ms total)
T4558 004:315 JLINK_ReadMem (0x20000FB4, 0x0004 Bytes, ...) -- Read from C cache (4 bytes @ 0x20000FB4) - Data: B1 31 00 08  returns 0x00 (0000ms, 0299ms total)
T4558 004:315 JLINK_ReadMem (0xE000ED28, 0x0004 Bytes, ...) -- CPU_ReadMem(4 bytes @ 0xE000ED28) - Data: 00 00 00 00  returns 0x00 (0000ms, 0299ms total)
T4558 004:325 JLINK_ReadMem (0x20000FC4, 0x0004 Bytes, ...) -- CPU_ReadMem(64 bytes @ 0x20000FC0) -- Updating C cache (64 bytes @ 0x20000FC0) -- Read from C cache (4 bytes @ 0x20000FC4) - Data: 6B 5E 00 08  returns 0x00 (0002ms, 0301ms total)
T4558 004:327 JLINK_ReadMem (0x20000FC0, 0x0004 Bytes, ...) -- Read from C cache (4 bytes @ 0x20000FC0) - Data: 00 00 00 00  returns 0x00 (0000ms, 0301ms total)
T4558 004:327 JLINK_ReadMem (0x00000000, 0x0004 Bytes, ...) -- CPU_ReadMem(4 bytes @ 0x00000004) -- CPU_ReadMem(64 bytes @ 0x08000000) -- Updating C cache (64 bytes @ 0x08000000) -- Read from C cache (4 bytes @ 0x08000000) - Data: C8 0F 00 20  returns 0x00 (0002ms, 0303ms total)
T4558 004:330 JLINK_ReadMem (0x20000084, 0x0020 Bytes, ...) -- CPU_ReadMem(64 bytes @ 0x20000080) -- Updating C cache (64 bytes @ 0x20000080) -- Read from C cache (32 bytes @ 0x20000084) - Data: 00 00 00 00 00 00 00 00 00 00 00 00 00 00 00 00 ...  returns 0x00 (0001ms, 0304ms total)
T4558 004:331 JLINK_ReadMem (0x20000284, 0x0020 Bytes, ...) -- CPU_ReadMem(64 bytes @ 0x20000280) -- Updating C cache (64 bytes @ 0x20000280) -- Read from C cache (32 bytes @ 0x20000284) - Data: 00 00 00 00 00 00 00 00 00 00 00 00 00 00 00 00 ...  returns 0x00 (0001ms, 0305ms total)
T4558 004:332 JLINK_ReadMem (0x40020000, 0x0004 Bytes, ...) -- CPU_ReadMem(4 bytes @ 0x40020000) - Data: 00 00 00 00  returns 0x00 (0001ms, 0306ms total)
T4558 004:333 JLINK_ReadMem (0x40020008, 0x000C Bytes, ...) -- CPU_ReadMem(12 bytes @ 0x40020008) - Data: 00 00 00 00 00 00 00 00 00 00 00 00  returns 0x00 (0000ms, 0306ms total)
T4558 004:333 JLINK_ReadMem (0x40020014, 0x0004 Bytes, ...) -- CPU_ReadMem(4 bytes @ 0x40020014) - Data: 00 00 00 00  returns 0x00 (0001ms, 0307ms total)
T4558 004:334 JLINK_ReadMem (0x4002001C, 0x000C Bytes, ...) -- CPU_ReadMem(12 bytes @ 0x4002001C) - Data: 00 00 00 00 00 00 00 00 00 00 00 00  returns 0x00 (0001ms, 0308ms total)
T4558 004:335 JLINK_ReadMem (0x40020028, 0x0004 Bytes, ...) -- CPU_ReadMem(4 bytes @ 0x40020028) - Data: 00 00 00 00  returns 0x00 (0000ms, 0308ms total)
T4558 004:335 JLINK_ReadMem (0x40020030, 0x000C Bytes, ...) -- CPU_ReadMem(12 bytes @ 0x40020030) - Data: 00 00 00 00 00 00 00 00 00 00 00 00  returns 0x00 (0001ms, 0309ms total)
T4558 004:336 JLINK_ReadMem (0x4002003C, 0x0004 Bytes, ...) -- CPU_ReadMem(4 bytes @ 0x4002003C) - Data: 00 00 00 00  returns 0x00 (0000ms, 0309ms total)
T4558 004:336 JLINK_ReadMem (0x40020044, 0x000C Bytes, ...) -- CPU_ReadMem(12 bytes @ 0x40020044) - Data: 00 00 00 00 00 00 00 00 00 00 00 00  returns 0x00 (0001ms, 0310ms total)
T4558 004:337 JLINK_ReadMem (0x40020050, 0x0004 Bytes, ...) -- CPU_ReadMem(4 bytes @ 0x40020050) - Data: 00 00 00 00  returns 0x00 (0000ms, 0310ms total)
T4558 004:337 JLINK_ReadMem (0x40020058, 0x000C Bytes, ...) -- CPU_ReadMem(12 bytes @ 0x40020058) - Data: 00 00 00 00 00 00 00 00 00 00 00 00  returns 0x00 (0001ms, 0311ms total)
T4558 004:338 JLINK_ReadMem (0x40020064, 0x0004 Bytes, ...) -- CPU_ReadMem(4 bytes @ 0x40020064) - Data: 00 00 00 00  returns 0x00 (0001ms, 0312ms total)
T4558 004:339 JLINK_ReadMem (0x4002006C, 0x000C Bytes, ...) -- CPU_ReadMem(12 bytes @ 0x4002006C) - Data: 80 00 00 00 00 00 00 00 00 00 00 00  returns 0x00 (0001ms, 0313ms total)
T4558 004:340 JLINK_ReadMem (0x40020078, 0x0004 Bytes, ...) -- CPU_ReadMem(4 bytes @ 0x40020078) - Data: 00 00 00 00  returns 0x00 (0000ms, 0313ms total)
T4558 004:340 JLINK_ReadMem (0x40020080, 0x000C Bytes, ...) -- CPU_ReadMem(12 bytes @ 0x40020080) - Data: 90 30 00 00 00 00 00 00 00 00 00 00  returns 0x00 (0001ms, 0314ms total)
T4558 004:341 JLINK_ReadMem (0x4002008C, 0x0004 Bytes, ...) -- CPU_ReadMem(4 bytes @ 0x4002008C) - Data: 00 00 00 00  returns 0x00 (0000ms, 0314ms total)
T4558 004:348 JLINK_ReadMem (0x08004926, 0x0002 Bytes, ...) -- CPU_ReadMem(64 bytes @ 0x08004900) -- Updating C cache (64 bytes @ 0x08004900) -- Read from C cache (2 bytes @ 0x08004926) - Data: 6F F0  returns 0x00 (0002ms, 0316ms total)
T4558 004:350 JLINK_ReadMem (0x08004928, 0x003C Bytes, ...) -- CPU_ReadMem(64 bytes @ 0x08004940) -- Updating C cache (64 bytes @ 0x08004940) -- Read from C cache (60 bytes @ 0x08004928) - Data: 40 00 25 49 09 68 08 60 23 48 90 F8 39 00 23 28 ...  returns 0x00 (0001ms, 0317ms total)
T628C 008:870 JLINK_Go() -- CPU_ReadMem(4 bytes @ 0xE0001000) -- CPU_WriteMem(4 bytes @ 0xE0002008) (0002ms, 0319ms total)
T628C 008:973 JLINK_IsHalted()  returns FALSE (0000ms, 0319ms total)
T628C 009:074 JLINK_IsHalted()  returns FALSE (0000ms, 0319ms total)
T628C 009:175 JLINK_IsHalted()  returns FALSE (0000ms, 0319ms total)
T628C 009:276 JLINK_IsHalted()  returns FALSE (0000ms, 0319ms total)
T628C 009:377 JLINK_ReadMemU32(0xE0001004, 0x0001 Items, ...) -- CPU is running -- CPU_ReadMem(4 bytes @ 0xE0001004) - Data: C0 09 2C 02  returns 0x01 (0000ms, 0319ms total)
T4558 009:378 JLINK_ReadMem (0x20000084, 0x0020 Bytes, ...) -- CPU is running -- CPU_ReadMem(32 bytes @ 0x20000084) - Data: 00 00 00 00 00 00 00 00 00 00 00 00 00 00 00 00 ...  returns 0x00 (0001ms, 0320ms total)
T4558 009:379 JLINK_ReadMem (0x20000284, 0x0020 Bytes, ...) -- CPU is running -- CPU_ReadMem(32 bytes @ 0x20000284) - Data: 00 00 00 00 00 00 00 00 00 00 00 00 00 00 00 00 ...  returns 0x00 (0001ms, 0321ms total)
T4558 009:380 JLINK_ReadMem (0x40020000, 0x0004 Bytes, ...) -- CPU is running -- CPU_ReadMem(4 bytes @ 0x40020000) - Data: 00 00 00 00  returns 0x00 (0001ms, 0322ms total)
T4558 009:381 JLINK_ReadMem (0x40020008, 0x000C Bytes, ...) -- CPU is running -- CPU_ReadMem(12 bytes @ 0x40020008) - Data: 00 00 00 00 00 00 00 00 00 00 00 00  returns 0x00 (0001ms, 0323ms total)
T4558 009:382 JLINK_ReadMem (0x40020014, 0x0004 Bytes, ...) -- CPU is running -- CPU_ReadMem(4 bytes @ 0x40020014) - Data: 00 00 00 00  returns 0x00 (0000ms, 0323ms total)
T4558 009:382 JLINK_ReadMem (0x4002001C, 0x000C Bytes, ...) -- CPU is running -- CPU_ReadMem(12 bytes @ 0x4002001C) - Data: 00 00 00 00 00 00 00 00 00 00 00 00  returns 0x00 (0001ms, 0324ms total)
T4558 009:383 JLINK_ReadMem (0x40020028, 0x0004 Bytes, ...) -- CPU is running -- CPU_ReadMem(4 bytes @ 0x40020028) - Data: 00 00 00 00  returns 0x00 (0001ms, 0325ms total)
T4558 009:384 JLINK_ReadMem (0x40020030, 0x000C Bytes, ...) -- CPU is running -- CPU_ReadMem(12 bytes @ 0x40020030) - Data: 00 00 00 00 00 00 00 00 00 00 00 00  returns 0x00 (0001ms, 0326ms total)
T4558 009:385 JLINK_ReadMem (0x4002003C, 0x0004 Bytes, ...) -- CPU is running -- CPU_ReadMem(4 bytes @ 0x4002003C) - Data: 00 00 00 00  returns 0x00 (0000ms, 0326ms total)
T4558 009:385 JLINK_ReadMem (0x40020044, 0x000C Bytes, ...) -- CPU is running -- CPU_ReadMem(12 bytes @ 0x40020044) - Data: 00 00 00 00 00 00 00 00 00 00 00 00  returns 0x00 (0001ms, 0327ms total)
T4558 009:386 JLINK_ReadMem (0x40020050, 0x0004 Bytes, ...) -- CPU is running -- CPU_ReadMem(4 bytes @ 0x40020050) - Data: 00 00 00 00  returns 0x00 (0001ms, 0328ms total)
T4558 009:387 JLINK_ReadMem (0x40020058, 0x000C Bytes, ...) -- CPU is running -- CPU_ReadMem(12 bytes @ 0x40020058) - Data: 00 00 00 00 00 00 00 00 00 00 00 00  returns 0x00 (0001ms, 0329ms total)
T4558 009:388 JLINK_ReadMem (0x40020064, 0x0004 Bytes, ...) -- CPU is running -- CPU_ReadMem(4 bytes @ 0x40020064) - Data: 00 00 00 00  returns 0x00 (0000ms, 0329ms total)
T4558 009:388 JLINK_ReadMem (0x4002006C, 0x000C Bytes, ...) -- CPU is running -- CPU_ReadMem(12 bytes @ 0x4002006C) - Data: 81 00 00 00 1E 00 00 00 04 44 00 40  returns 0x00 (0001ms, 0330ms total)
T4558 009:389 JLINK_ReadMem (0x40020078, 0x0004 Bytes, ...) -- CPU is running -- CPU_ReadMem(4 bytes @ 0x40020078) - Data: 84 00 00 20  returns 0x00 (0001ms, 0331ms total)
T4558 009:390 JLINK_ReadMem (0x40020080, 0x000C Bytes, ...) -- CPU is running -- CPU_ReadMem(12 bytes @ 0x40020080) - Data: 90 30 00 00 00 00 00 00 00 00 00 00  returns 0x00 (0000ms, 0331ms total)
T4558 009:390 JLINK_ReadMem (0x4002008C, 0x0004 Bytes, ...) -- CPU is running -- CPU_ReadMem(4 bytes @ 0x4002008C) - Data: 00 00 00 00  returns 0x00 (0001ms, 0332ms total)
T628C 009:397 JLINK_IsHalted()  returns FALSE (0001ms, 0333ms total)
T628C 009:499 JLINK_IsHalted()  returns FALSE (0000ms, 0332ms total)
T628C 009:600 JLINK_IsHalted()  returns FALSE (0000ms, 0332ms total)
T628C 009:701 JLINK_IsHalted()  returns FALSE (0000ms, 0332ms total)
T628C 009:802 JLINK_IsHalted()  returns FALSE (0000ms, 0332ms total)
T628C 009:903 JLINK_ReadMemU32(0xE0001004, 0x0001 Items, ...) -- CPU is running - Data: C0 09 2C 02  returns 0x01 (0000ms, 0332ms total)
T4558 009:903 JLINK_ReadMem (0x20000084, 0x0020 Bytes, ...) -- CPU is running -- CPU_ReadMem(32 bytes @ 0x20000084) - Data: 00 00 00 00 00 00 00 00 00 00 00 00 00 00 00 00 ...  returns 0x00 (0001ms, 0333ms total)
T4558 009:904 JLINK_ReadMem (0x20000284, 0x0020 Bytes, ...) -- CPU is running -- CPU_ReadMem(32 bytes @ 0x20000284) - Data: 00 00 00 00 00 00 00 00 00 00 00 00 00 00 00 00 ...  returns 0x00 (0001ms, 0334ms total)
T4558 009:905 JLINK_ReadMem (0x40020000, 0x0004 Bytes, ...) -- CPU is running -- CPU_ReadMem(4 bytes @ 0x40020000) - Data: 00 00 00 00  returns 0x00 (0000ms, 0334ms total)
T4558 009:905 JLINK_ReadMem (0x40020008, 0x000C Bytes, ...) -- CPU is running -- CPU_ReadMem(12 bytes @ 0x40020008) - Data: 00 00 00 00 00 00 00 00 00 00 00 00  returns 0x00 (0001ms, 0335ms total)
T4558 009:906 JLINK_ReadMem (0x40020014, 0x0004 Bytes, ...) -- CPU is running -- CPU_ReadMem(4 bytes @ 0x40020014) - Data: 00 00 00 00  returns 0x00 (0001ms, 0336ms total)
T4558 009:907 JLINK_ReadMem (0x4002001C, 0x000C Bytes, ...) -- CPU is running -- CPU_ReadMem(12 bytes @ 0x4002001C) - Data: 00 00 00 00 00 00 00 00 00 00 00 00  returns 0x00 (0001ms, 0337ms total)
T4558 009:908 JLINK_ReadMem (0x40020028, 0x0004 Bytes, ...) -- CPU is running -- CPU_ReadMem(4 bytes @ 0x40020028) - Data: 00 00 00 00  returns 0x00 (0000ms, 0337ms total)
T4558 009:908 JLINK_ReadMem (0x40020030, 0x000C Bytes, ...) -- CPU is running -- CPU_ReadMem(12 bytes @ 0x40020030) - Data: 00 00 00 00 00 00 00 00 00 00 00 00  returns 0x00 (0001ms, 0338ms total)
T4558 009:909 JLINK_ReadMem (0x4002003C, 0x0004 Bytes, ...) -- CPU is running -- CPU_ReadMem(4 bytes @ 0x4002003C) - Data: 00 00 00 00  returns 0x00 (0001ms, 0339ms total)
T4558 009:910 JLINK_ReadMem (0x40020044, 0x000C Bytes, ...) -- CPU is running -- CPU_ReadMem(12 bytes @ 0x40020044) - Data: 00 00 00 00 00 00 00 00 00 00 00 00  returns 0x00 (0000ms, 0339ms total)
T4558 009:910 JLINK_ReadMem (0x40020050, 0x0004 Bytes, ...) -- CPU is running -- CPU_ReadMem(4 bytes @ 0x40020050) - Data: 00 00 00 00  returns 0x00 (0001ms, 0340ms total)
T4558 009:911 JLINK_ReadMem (0x40020058, 0x000C Bytes, ...) -- CPU is running -- CPU_ReadMem(12 bytes @ 0x40020058) - Data: 00 00 00 00 00 00 00 00 00 00 00 00  returns 0x00 (0000ms, 0340ms total)
T4558 009:911 JLINK_ReadMem (0x40020064, 0x0004 Bytes, ...) -- CPU is running -- CPU_ReadMem(4 bytes @ 0x40020064) - Data: 00 00 00 00  returns 0x00 (0001ms, 0341ms total)
T4558 009:912 JLINK_ReadMem (0x4002006C, 0x000C Bytes, ...) -- CPU is running -- CPU_ReadMem(12 bytes @ 0x4002006C) - Data: 81 00 00 00 1E 00 00 00 04 44 00 40  returns 0x00 (0001ms, 0342ms total)
T4558 009:913 JLINK_ReadMem (0x40020078, 0x0004 Bytes, ...) -- CPU is running -- CPU_ReadMem(4 bytes @ 0x40020078) - Data: 84 00 00 20  returns 0x00 (0000ms, 0342ms total)
T4558 009:913 JLINK_ReadMem (0x40020080, 0x000C Bytes, ...) -- CPU is running -- CPU_ReadMem(12 bytes @ 0x40020080) - Data: 90 30 00 00 00 00 00 00 00 00 00 00  returns 0x00 (0001ms, 0343ms total)
T4558 009:914 JLINK_ReadMem (0x4002008C, 0x0004 Bytes, ...) -- CPU is running -- CPU_ReadMem(4 bytes @ 0x4002008C) - Data: 00 00 00 00  returns 0x00 (0000ms, 0343ms total)
T628C 009:915 JLINK_IsHalted()  returns FALSE (0000ms, 0343ms total)
T628C 010:016 JLINK_IsHalted()  returns FALSE (0000ms, 0343ms total)
T628C 010:117 JLINK_IsHalted()  returns FALSE (0001ms, 0344ms total)
T628C 010:219 JLINK_IsHalted()  returns FALSE (0000ms, 0343ms total)
T628C 010:320 JLINK_IsHalted()  returns FALSE (0000ms, 0343ms total)
T628C 010:421 JLINK_ReadMemU32(0xE0001004, 0x0001 Items, ...) -- CPU is running - Data: C0 09 2C 02  returns 0x01 (0000ms, 0343ms total)
T4558 010:421 JLINK_ReadMem (0x20000084, 0x0020 Bytes, ...) -- CPU is running -- CPU_ReadMem(32 bytes @ 0x20000084) - Data: 00 00 00 00 00 00 00 00 00 00 00 00 00 00 00 00 ...  returns 0x00 (0000ms, 0343ms total)
T4558 010:422 JLINK_ReadMem (0x20000284, 0x0020 Bytes, ...) -- CPU is running -- CPU_ReadMem(32 bytes @ 0x20000284) - Data: 00 00 00 00 00 00 00 00 00 00 00 00 00 00 00 00 ...  returns 0x00 (0000ms, 0343ms total)
T4558 010:422 JLINK_ReadMem (0x40020000, 0x0004 Bytes, ...) -- CPU is running -- CPU_ReadMem(4 bytes @ 0x40020000) - Data: 00 00 00 00  returns 0x00 (0001ms, 0344ms total)
T4558 010:423 JLINK_ReadMem (0x40020008, 0x000C Bytes, ...) -- CPU is running -- CPU_ReadMem(12 bytes @ 0x40020008) - Data: 00 00 00 00 00 00 00 00 00 00 00 00  returns 0x00 (0000ms, 0344ms total)
T4558 010:423 JLINK_ReadMem (0x40020014, 0x0004 Bytes, ...) -- CPU is running -- CPU_ReadMem(4 bytes @ 0x40020014) - Data: 00 00 00 00  returns 0x00 (0001ms, 0345ms total)
T4558 010:424 JLINK_ReadMem (0x4002001C, 0x000C Bytes, ...) -- CPU is running -- CPU_ReadMem(12 bytes @ 0x4002001C) - Data: 00 00 00 00 00 00 00 00 00 00 00 00  returns 0x00 (0000ms, 0345ms total)
T4558 010:424 JLINK_ReadMem (0x40020028, 0x0004 Bytes, ...) -- CPU is running -- CPU_ReadMem(4 bytes @ 0x40020028) - Data: 00 00 00 00  returns 0x00 (0001ms, 0346ms total)
T4558 010:425 JLINK_ReadMem (0x40020030, 0x000C Bytes, ...) -- CPU is running -- CPU_ReadMem(12 bytes @ 0x40020030) - Data: 00 00 00 00 00 00 00 00 00 00 00 00  returns 0x00 (0000ms, 0346ms total)
T4558 010:425 JLINK_ReadMem (0x4002003C, 0x0004 Bytes, ...) -- CPU is running -- CPU_ReadMem(4 bytes @ 0x4002003C) - Data: 00 00 00 00  returns 0x00 (0001ms, 0347ms total)
T4558 010:426 JLINK_ReadMem (0x40020044, 0x000C Bytes, ...) -- CPU is running -- CPU_ReadMem(12 bytes @ 0x40020044) - Data: 00 00 00 00 00 00 00 00 00 00 00 00  returns 0x00 (0001ms, 0348ms total)
T4558 010:427 JLINK_ReadMem (0x40020050, 0x0004 Bytes, ...) -- CPU is running -- CPU_ReadMem(4 bytes @ 0x40020050) - Data: 00 00 00 00  returns 0x00 (0000ms, 0348ms total)
T4558 010:427 JLINK_ReadMem (0x40020058, 0x000C Bytes, ...) -- CPU is running -- CPU_ReadMem(12 bytes @ 0x40020058) - Data: 00 00 00 00 00 00 00 00 00 00 00 00  returns 0x00 (0001ms, 0349ms total)
T4558 010:428 JLINK_ReadMem (0x40020064, 0x0004 Bytes, ...) -- CPU is running -- CPU_ReadMem(4 bytes @ 0x40020064) - Data: 00 00 00 00  returns 0x00 (0000ms, 0349ms total)
T4558 010:428 JLINK_ReadMem (0x4002006C, 0x000C Bytes, ...) -- CPU is running -- CPU_ReadMem(12 bytes @ 0x4002006C) - Data: 81 00 00 00 1E 00 00 00 04 44 00 40  returns 0x00 (0001ms, 0350ms total)
T4558 010:429 JLINK_ReadMem (0x40020078, 0x0004 Bytes, ...) -- CPU is running -- CPU_ReadMem(4 bytes @ 0x40020078) - Data: 84 00 00 20  returns 0x00 (0000ms, 0350ms total)
T4558 010:429 JLINK_ReadMem (0x40020080, 0x000C Bytes, ...) -- CPU is running -- CPU_ReadMem(12 bytes @ 0x40020080) - Data: 90 30 00 00 00 00 00 00 00 00 00 00  returns 0x00 (0001ms, 0351ms total)
T4558 010:430 JLINK_ReadMem (0x4002008C, 0x0004 Bytes, ...) -- CPU is running -- CPU_ReadMem(4 bytes @ 0x4002008C) - Data: 00 00 00 00  returns 0x00 (0000ms, 0351ms total)
T628C 010:431 JLINK_IsHalted()  returns FALSE (0000ms, 0351ms total)
T628C 010:532 JLINK_IsHalted()  returns FALSE (0000ms, 0351ms total)
T628C 010:633 JLINK_IsHalted()  returns FALSE (0000ms, 0351ms total)
T628C 010:734 JLINK_IsHalted()  returns FALSE (0000ms, 0351ms total)
T628C 010:835 JLINK_IsHalted()  returns FALSE (0000ms, 0351ms total)
T628C 010:936 JLINK_ReadMemU32(0xE0001004, 0x0001 Items, ...) -- CPU is running - Data: C0 09 2C 02  returns 0x01 (0000ms, 0351ms total)
T4558 010:936 JLINK_ReadMem (0x20000084, 0x0020 Bytes, ...) -- CPU is running -- CPU_ReadMem(32 bytes @ 0x20000084) - Data: 00 00 00 00 00 00 00 00 00 00 00 00 00 00 00 00 ...  returns 0x00 (0001ms, 0352ms total)
T4558 010:937 JLINK_ReadMem (0x20000284, 0x0020 Bytes, ...) -- CPU is running -- CPU_ReadMem(32 bytes @ 0x20000284) - Data: 00 00 00 00 00 00 00 00 00 00 00 00 00 00 00 00 ...  returns 0x00 (0000ms, 0352ms total)
T4558 010:937 JLINK_ReadMem (0x40020000, 0x0004 Bytes, ...) -- CPU is running -- CPU_ReadMem(4 bytes @ 0x40020000) - Data: 00 00 00 00  returns 0x00 (0001ms, 0353ms total)
T4558 010:938 JLINK_ReadMem (0x40020008, 0x000C Bytes, ...) -- CPU is running -- CPU_ReadMem(12 bytes @ 0x40020008) - Data: 00 00 00 00 00 00 00 00 00 00 00 00  returns 0x00 (0001ms, 0354ms total)
T4558 010:939 JLINK_ReadMem (0x40020014, 0x0004 Bytes, ...) -- CPU is running -- CPU_ReadMem(4 bytes @ 0x40020014) - Data: 00 00 00 00  returns 0x00 (0000ms, 0354ms total)
T4558 010:939 JLINK_ReadMem (0x4002001C, 0x000C Bytes, ...) -- CPU is running -- CPU_ReadMem(12 bytes @ 0x4002001C) - Data: 00 00 00 00 00 00 00 00 00 00 00 00  returns 0x00 (0001ms, 0355ms total)
T4558 010:940 JLINK_ReadMem (0x40020028, 0x0004 Bytes, ...) -- CPU is running -- CPU_ReadMem(4 bytes @ 0x40020028) - Data: 00 00 00 00  returns 0x00 (0000ms, 0355ms total)
T4558 010:940 JLINK_ReadMem (0x40020030, 0x000C Bytes, ...) -- CPU is running -- CPU_ReadMem(12 bytes @ 0x40020030) - Data: 00 00 00 00 00 00 00 00 00 00 00 00  returns 0x00 (0001ms, 0356ms total)
T4558 010:941 JLINK_ReadMem (0x4002003C, 0x0004 Bytes, ...) -- CPU is running -- CPU_ReadMem(4 bytes @ 0x4002003C) - Data: 00 00 00 00  returns 0x00 (0000ms, 0356ms total)
T4558 010:941 JLINK_ReadMem (0x40020044, 0x000C Bytes, ...) -- CPU is running -- CPU_ReadMem(12 bytes @ 0x40020044) - Data: 00 00 00 00 00 00 00 00 00 00 00 00  returns 0x00 (0001ms, 0357ms total)
T4558 010:942 JLINK_ReadMem (0x40020050, 0x0004 Bytes, ...) -- CPU is running -- CPU_ReadMem(4 bytes @ 0x40020050) - Data: 00 00 00 00  returns 0x00 (0000ms, 0357ms total)
T4558 010:942 JLINK_ReadMem (0x40020058, 0x000C Bytes, ...) -- CPU is running -- CPU_ReadMem(12 bytes @ 0x40020058) - Data: 00 00 00 00 00 00 00 00 00 00 00 00  returns 0x00 (0001ms, 0358ms total)
T4558 010:943 JLINK_ReadMem (0x40020064, 0x0004 Bytes, ...) -- CPU is running -- CPU_ReadMem(4 bytes @ 0x40020064) - Data: 00 00 00 00  returns 0x00 (0000ms, 0358ms total)
T4558 010:943 JLINK_ReadMem (0x4002006C, 0x000C Bytes, ...) -- CPU is running -- CPU_ReadMem(12 bytes @ 0x4002006C) - Data: 81 00 00 00 1E 00 00 00 04 44 00 40  returns 0x00 (0001ms, 0359ms total)
T4558 010:944 JLINK_ReadMem (0x40020078, 0x0004 Bytes, ...) -- CPU is running -- CPU_ReadMem(4 bytes @ 0x40020078) - Data: 84 00 00 20  returns 0x00 (0000ms, 0359ms total)
T4558 010:944 JLINK_ReadMem (0x40020080, 0x000C Bytes, ...) -- CPU is running -- CPU_ReadMem(12 bytes @ 0x40020080) - Data: 90 30 00 00 00 00 00 00 00 00 00 00  returns 0x00 (0001ms, 0360ms total)
T4558 010:945 JLINK_ReadMem (0x4002008C, 0x0004 Bytes, ...) -- CPU is running -- CPU_ReadMem(4 bytes @ 0x4002008C) - Data: 00 00 00 00  returns 0x00 (0000ms, 0360ms total)
T628C 010:946 JLINK_IsHalted()  returns FALSE (0001ms, 0361ms total)
T628C 011:048 JLINK_IsHalted()  returns FALSE (0000ms, 0360ms total)
T628C 011:149 JLINK_IsHalted()  returns FALSE (0000ms, 0360ms total)
T628C 011:250 JLINK_IsHalted()  returns FALSE (0000ms, 0360ms total)
T628C 011:351 JLINK_IsHalted()  returns FALSE (0000ms, 0360ms total)
T628C 011:452 JLINK_ReadMemU32(0xE0001004, 0x0001 Items, ...) -- CPU is running - Data: C0 09 2C 02  returns 0x01 (0000ms, 0360ms total)
T4558 011:452 JLINK_ReadMem (0x20000084, 0x0020 Bytes, ...) -- CPU is running -- CPU_ReadMem(32 bytes @ 0x20000084) - Data: 00 00 00 00 00 00 00 00 00 00 00 00 00 00 00 00 ...  returns 0x00 (0000ms, 0360ms total)
T4558 011:452 JLINK_ReadMem (0x20000284, 0x0020 Bytes, ...) -- CPU is running -- CPU_ReadMem(32 bytes @ 0x20000284) - Data: 00 00 00 00 00 00 00 00 00 00 00 00 00 00 00 00 ...  returns 0x00 (0001ms, 0361ms total)
T4558 011:453 JLINK_ReadMem (0x40020000, 0x0004 Bytes, ...) -- CPU is running -- CPU_ReadMem(4 bytes @ 0x40020000) - Data: 00 00 00 00  returns 0x00 (0001ms, 0362ms total)
T4558 011:454 JLINK_ReadMem (0x40020008, 0x000C Bytes, ...) -- CPU is running -- CPU_ReadMem(12 bytes @ 0x40020008) - Data: 00 00 00 00 00 00 00 00 00 00 00 00  returns 0x00 (0000ms, 0362ms total)
T4558 011:454 JLINK_ReadMem (0x40020014, 0x0004 Bytes, ...) -- CPU is running -- CPU_ReadMem(4 bytes @ 0x40020014) - Data: 00 00 00 00  returns 0x00 (0001ms, 0363ms total)
T4558 011:455 JLINK_ReadMem (0x4002001C, 0x000C Bytes, ...) -- CPU is running -- CPU_ReadMem(12 bytes @ 0x4002001C) - Data: 00 00 00 00 00 00 00 00 00 00 00 00  returns 0x00 (0000ms, 0363ms total)
T4558 011:455 JLINK_ReadMem (0x40020028, 0x0004 Bytes, ...) -- CPU is running -- CPU_ReadMem(4 bytes @ 0x40020028) - Data: 00 00 00 00  returns 0x00 (0001ms, 0364ms total)
T4558 011:456 JLINK_ReadMem (0x40020030, 0x000C Bytes, ...) -- CPU is running -- CPU_ReadMem(12 bytes @ 0x40020030) - Data: 00 00 00 00 00 00 00 00 00 00 00 00  returns 0x00 (0000ms, 0364ms total)
T4558 011:456 JLINK_ReadMem (0x4002003C, 0x0004 Bytes, ...) -- CPU is running -- CPU_ReadMem(4 bytes @ 0x4002003C) - Data: 00 00 00 00  returns 0x00 (0001ms, 0365ms total)
T4558 011:457 JLINK_ReadMem (0x40020044, 0x000C Bytes, ...) -- CPU is running -- CPU_ReadMem(12 bytes @ 0x40020044) - Data: 00 00 00 00 00 00 00 00 00 00 00 00  returns 0x00 (0001ms, 0366ms total)
T4558 011:458 JLINK_ReadMem (0x40020050, 0x0004 Bytes, ...) -- CPU is running -- CPU_ReadMem(4 bytes @ 0x40020050) - Data: 00 00 00 00  returns 0x00 (0000ms, 0366ms total)
T4558 011:458 JLINK_ReadMem (0x40020058, 0x000C Bytes, ...) -- CPU is running -- CPU_ReadMem(12 bytes @ 0x40020058) - Data: 00 00 00 00 00 00 00 00 00 00 00 00  returns 0x00 (0001ms, 0367ms total)
T4558 011:459 JLINK_ReadMem (0x40020064, 0x0004 Bytes, ...) -- CPU is running -- CPU_ReadMem(4 bytes @ 0x40020064) - Data: 00 00 00 00  returns 0x00 (0000ms, 0367ms total)
T4558 011:459 JLINK_ReadMem (0x4002006C, 0x000C Bytes, ...) -- CPU is running -- CPU_ReadMem(12 bytes @ 0x4002006C) - Data: 81 00 00 00 1E 00 00 00 04 44 00 40  returns 0x00 (0001ms, 0368ms total)
T4558 011:460 JLINK_ReadMem (0x40020078, 0x0004 Bytes, ...) -- CPU is running -- CPU_ReadMem(4 bytes @ 0x40020078) - Data: 84 00 00 20  returns 0x00 (0000ms, 0368ms total)
T4558 011:460 JLINK_ReadMem (0x40020080, 0x000C Bytes, ...) -- CPU is running -- CPU_ReadMem(12 bytes @ 0x40020080) - Data: 90 30 00 00 00 00 00 00 00 00 00 00  returns 0x00 (0001ms, 0369ms total)
T4558 011:461 JLINK_ReadMem (0x4002008C, 0x0004 Bytes, ...) -- CPU is running -- CPU_ReadMem(4 bytes @ 0x4002008C) - Data: 00 00 00 00  returns 0x00 (0000ms, 0369ms total)
T628C 011:461 JLINK_IsHalted()  returns FALSE (0001ms, 0370ms total)
T628C 011:563 JLINK_IsHalted()  returns FALSE (0000ms, 0369ms total)
T628C 011:664 JLINK_IsHalted()  returns FALSE (0001ms, 0370ms total)
T628C 011:766 JLINK_IsHalted()  returns FALSE (0000ms, 0369ms total)
T628C 011:867 JLINK_IsHalted()  returns FALSE (0000ms, 0369ms total)
T628C 011:968 JLINK_ReadMemU32(0xE0001004, 0x0001 Items, ...) -- CPU is running - Data: C0 09 2C 02  returns 0x01 (0000ms, 0369ms total)
T4558 011:968 JLINK_ReadMem (0x20000084, 0x0020 Bytes, ...) -- CPU is running -- CPU_ReadMem(32 bytes @ 0x20000084) - Data: 01 11 03 00 03 E8 03 E8 03 E8 03 E8 03 E8 03 E8 ...  returns 0x00 (0001ms, 0370ms total)
T4558 011:969 JLINK_ReadMem (0x20000284, 0x0020 Bytes, ...) -- CPU is running -- CPU_ReadMem(32 bytes @ 0x20000284) - Data: 00 00 00 00 00 00 00 00 00 00 00 00 00 00 00 00 ...  returns 0x00 (0001ms, 0371ms total)
T4558 011:971 JLINK_ReadMem (0x40020000, 0x0004 Bytes, ...) -- CPU is running -- CPU_ReadMem(4 bytes @ 0x40020000) - Data: 00 00 00 00  returns 0x00 (0000ms, 0371ms total)
T4558 011:971 JLINK_ReadMem (0x40020008, 0x000C Bytes, ...) -- CPU is running -- CPU_ReadMem(12 bytes @ 0x40020008) - Data: 00 00 00 00 00 00 00 00 00 00 00 00  returns 0x00 (0001ms, 0372ms total)
T4558 011:972 JLINK_ReadMem (0x40020014, 0x0004 Bytes, ...) -- CPU is running -- CPU_ReadMem(4 bytes @ 0x40020014) - Data: 00 00 00 00  returns 0x00 (0002ms, 0374ms total)
T4558 011:974 JLINK_ReadMem (0x4002001C, 0x000C Bytes, ...) -- CPU is running -- CPU_ReadMem(12 bytes @ 0x4002001C) - Data: 00 00 00 00 00 00 00 00 00 00 00 00  returns 0x00 (0000ms, 0374ms total)
T4558 011:974 JLINK_ReadMem (0x40020028, 0x0004 Bytes, ...) -- CPU is running -- CPU_ReadMem(4 bytes @ 0x40020028) - Data: 00 00 00 00  returns 0x00 (0000ms, 0374ms total)
T4558 011:974 JLINK_ReadMem (0x40020030, 0x000C Bytes, ...) -- CPU is running -- CPU_ReadMem(12 bytes @ 0x40020030) - Data: 00 00 00 00 00 00 00 00 00 00 00 00  returns 0x00 (0001ms, 0375ms total)
T4558 011:975 JLINK_ReadMem (0x4002003C, 0x0004 Bytes, ...) -- CPU is running -- CPU_ReadMem(4 bytes @ 0x4002003C) - Data: 00 00 00 00  returns 0x00 (0000ms, 0375ms total)
T4558 011:975 JLINK_ReadMem (0x40020044, 0x000C Bytes, ...) -- CPU is running -- CPU_ReadMem(12 bytes @ 0x40020044) - Data: 00 00 00 00 00 00 00 00 00 00 00 00  returns 0x00 (0001ms, 0376ms total)
T4558 011:976 JLINK_ReadMem (0x40020050, 0x0004 Bytes, ...) -- CPU is running -- CPU_ReadMem(4 bytes @ 0x40020050) - Data: 00 00 00 00  returns 0x00 (0001ms, 0377ms total)
T4558 011:977 JLINK_ReadMem (0x40020058, 0x000C Bytes, ...) -- CPU is running -- CPU_ReadMem(12 bytes @ 0x40020058) - Data: 00 00 00 00 00 00 00 00 00 00 00 00  returns 0x00 (0000ms, 0377ms total)
T4558 011:977 JLINK_ReadMem (0x40020064, 0x0004 Bytes, ...) -- CPU is running -- CPU_ReadMem(4 bytes @ 0x40020064) - Data: 00 00 00 00  returns 0x00 (0001ms, 0378ms total)
T4558 011:978 JLINK_ReadMem (0x4002006C, 0x000C Bytes, ...) -- CPU is running -- CPU_ReadMem(12 bytes @ 0x4002006C) - Data: 81 00 00 00 1F 00 00 00 04 44 00 40  returns 0x00 (0001ms, 0379ms total)
T4558 011:979 JLINK_ReadMem (0x40020078, 0x0004 Bytes, ...) -- CPU is running -- CPU_ReadMem(4 bytes @ 0x40020078) - Data: 84 00 00 20  returns 0x00 (0000ms, 0379ms total)
T4558 011:979 JLINK_ReadMem (0x40020080, 0x000C Bytes, ...) -- CPU is running -- CPU_ReadMem(12 bytes @ 0x40020080) - Data: 90 30 00 00 00 00 00 00 00 00 00 00  returns 0x00 (0001ms, 0380ms total)
